time	V(vout)	I(I1)
0.000000000000000e+00	2.131628e-14	0.000000e+00
1.023650896459428e-09	2.679991e-04	-5.118255e-06
1.070952745942148e-09	2.810499e-04	-5.354764e-06
1.165556444907588e-09	3.086107e-04	-5.827782e-06
1.354763842838467e-09	3.658843e-04	-6.773819e-06
1.733178638700226e-09	4.736902e-04	-8.665893e-06
2.490008230423743e-09	6.380851e-04	-1.245004e-05
3.888219336883656e-09	8.135212e-04	-1.944110e-05
5.223845385528517e-09	8.650103e-04	-2.611923e-05
7.298137744788649e-09	8.173556e-04	-3.649069e-05
9.788880921385399e-09	6.991870e-04	-4.894440e-05
1.424897441153763e-08	4.834452e-04	-7.124487e-05
1.885627231719500e-08	3.091990e-04	-9.428136e-05
2.332481288229406e-08	1.738483e-04	-1.166241e-04
2.759830246118362e-08	3.679581e-05	-1.379915e-04
3.259431276225396e-08	-1.772439e-04	-1.629716e-04
3.941598764329931e-08	-5.960258e-04	-1.970799e-04
4.838530901166617e-08	-1.352653e-03	-2.419266e-04
5.680773553816510e-08	-2.231224e-03	-2.840387e-04
6.697353902916899e-08	-3.295343e-03	-3.348677e-04
7.775454223514866e-08	-4.082671e-03	-3.887727e-04
8.839108672951631e-08	-4.235417e-03	-4.419554e-04
9.921889902196834e-08	-3.535132e-03	-4.960945e-04
1.107742985113076e-07	-1.612091e-03	-5.538715e-04
1.232628220467821e-07	2.030370e-03	-6.163141e-04
1.359194442796378e-07	7.550760e-03	-6.795972e-04
1.498941460142927e-07	1.583036e-02	-7.494707e-04
1.662722980045838e-07	2.828876e-02	-8.313615e-04
1.902469466486135e-07	5.037995e-02	-9.512347e-04
2.120450466386217e-07	7.359470e-02	-1.060225e-03
2.426527795760891e-07	1.096746e-01	-1.213264e-03
2.764192377062651e-07	1.520383e-01	-1.382096e-03
3.439521539666171e-07	2.400833e-01	-1.719761e-03
4.213723693810321e-07	3.435122e-01	-2.106862e-03
5.465197559300749e-07	5.142586e-01	-2.732599e-03
6.822617952255865e-07	7.018970e-01	-3.411309e-03
7.285159214089767e-07	7.661473e-01	-3.642580e-03
8.210241737757570e-07	8.946600e-01	-4.105121e-03
1.000000000000000e-06	1.143158e+00	-5.000000e-03
1.014815367814313e-06	1.163704e+00	-5.000000e-03
1.044446103442940e-06	1.204836e+00	-5.000000e-03
1.081157715022497e-06	1.255801e+00	-5.000000e-03
1.124561123963163e-06	1.316047e+00	-5.000000e-03
1.175552850109727e-06	1.386828e+00	-5.000000e-03
1.265273597281540e-06	1.511362e+00	-5.000000e-03
1.374903799901902e-06	1.663528e+00	-5.000000e-03
1.458389830122683e-06	1.779405e+00	-5.000000e-03
1.524083894082523e-06	1.870625e+00	-5.000000e-03
1.561936701312640e-06	1.923226e+00	-5.000000e-03
1.603133103284103e-06	1.980461e+00	-5.000000e-03
1.645730727343145e-06	2.039152e+00	-5.000000e-03
1.691760395494059e-06	2.099292e+00	-5.000000e-03
1.779655578115743e-06	2.203099e+00	-5.000000e-03
1.877437316549688e-06	2.307985e+00	-5.000000e-03
1.982116417027105e-06	2.414549e+00	-5.000000e-03
2.107123824554251e-06	2.539400e+00	-5.000000e-03
2.263948204002643e-06	2.693365e+00	-5.000000e-03
2.577596962899427e-06	2.996233e+00	-5.000000e-03
2.994177459485210e-06	3.391739e+00	-5.000000e-03
3.513571082894325e-06	3.869116e+00	-5.000000e-03
3.748909940061703e-06	4.058531e+00	-5.000000e-03
3.966515278495517e-06	4.193509e+00	-5.000000e-03
4.089221706405740e-06	4.249632e+00	-5.000000e-03
4.233134100961251e-06	4.300786e+00	-5.000000e-03
4.384577990919582e-06	4.345469e+00	-5.000000e-03
4.563613476029904e-06	4.388790e+00	-5.000000e-03
4.754135415057700e-06	4.426681e+00	-5.000000e-03
4.974497535166493e-06	4.462335e+00	-5.000000e-03
5.243158173468481e-06	4.497432e+00	-5.000000e-03
5.540419442605950e-06	4.528487e+00	-5.000000e-03
5.893854918150301e-06	4.557580e+00	-5.000000e-03
6.325405705663296e-06	4.585321e+00	-5.000000e-03
6.796284967634198e-06	4.608626e+00	-5.000000e-03
7.360745071109151e-06	4.629885e+00	-5.000000e-03
7.976650833079703e-06	4.647507e+00	-5.000000e-03
8.624214314247300e-06	4.661681e+00	-5.000000e-03
9.122843625136683e-06	4.669675e+00	-5.000000e-03
9.447116064346660e-06	4.672522e+00	-5.000000e-03
9.614445932521584e-06	4.672774e+00	-5.000000e-03
9.706232743621200e-06	4.672631e+00	-5.000000e-03
9.750742579685147e-06	4.672605e+00	-5.000000e-03
9.959738099734261e-06	4.672637e+00	-5.000000e-03
1.014755860487807e-05	4.672631e+00	-5.000000e-03
1.039698692245609e-05	4.672628e+00	-5.000000e-03
1.066411979565329e-05	4.672629e+00	-5.000000e-03
1.119838554204768e-05	4.672629e+00	-5.000000e-03
1.943680998626241e-05	4.672631e+00	-5.000000e-03
2.767523443047713e-05	4.672632e+00	-5.000000e-03
3.591365887469186e-05	4.672632e+00	-5.000000e-03
4.415208331890658e-05	4.672633e+00	-5.000000e-03
5.239050776312131e-05	4.672633e+00	-5.000000e-03
6.062893220733603e-05	4.672633e+00	-5.000000e-03
6.886735665155074e-05	4.672632e+00	-5.000000e-03
1.780060766860036e-04	4.672632e+00	-5.000000e-03
2.871447967204564e-04	4.672632e+00	-5.000000e-03
3.962835167549092e-04	4.672632e+00	-5.000000e-03
5.054222367893620e-04	4.672632e+00	-5.000000e-03
6.145609568238149e-04	4.672632e+00	-5.000000e-03
7.236996768582677e-04	4.672633e+00	-5.000000e-03
8.328383968927203e-04	4.672633e+00	-5.000000e-03
1.115139399736134e-03	4.672633e+00	-5.000000e-03
2.001000000000000e-03	4.672633e+00	-5.000000e-03
2.001004400076332e-03	4.672614e+00	-4.978000e-03
2.001013200228994e-03	4.672583e+00	-4.933999e-03
2.001023162595276e-03	4.672565e+00	-4.884187e-03
2.001032665444473e-03	4.672580e+00	-4.836673e-03
2.001051671142868e-03	4.672728e+00	-4.741644e-03
2.001069066716212e-03	4.673070e+00	-4.654666e-03
2.001091707397019e-03	4.673933e+00	-4.541463e-03
2.001115076210397e-03	4.675416e+00	-4.424619e-03
2.001152707789750e-03	4.678805e+00	-4.236461e-03
2.001179971166988e-03	4.681872e+00	-4.100144e-03
2.001201587135021e-03	4.684690e+00	-3.992064e-03
2.001225316230979e-03	4.688034e+00	-3.873419e-03
2.001250114798344e-03	4.691668e+00	-3.749426e-03
2.001273899204473e-03	4.695175e+00	-3.630504e-03
2.001321468016732e-03	4.701969e+00	-3.392660e-03
2.001386389858164e-03	4.710633e+00	-3.068051e-03
2.001467402487799e-03	4.720339e+00	-2.662987e-03
2.001522123453146e-03	4.724720e+00	-2.389383e-03
2.001573297556409e-03	4.725887e+00	-2.133512e-03
2.001622602869472e-03	4.725745e+00	-1.886986e-03
2.001688765770176e-03	4.725546e+00	-1.556171e-03
2.001749746798650e-03	4.725362e+00	-1.251266e-03
2.001871708855598e-03	4.724990e+00	-6.414557e-04
2.002000000000000e-03	4.724600e+00	-1.504005e-15
2.002012829114440e-03	4.724599e+00	0.000000e+00
2.002038487343320e-03	4.724598e+00	0.000000e+00
2.002089803801081e-03	4.724596e+00	0.000000e+00
2.002170044584577e-03	4.724592e+00	0.000000e+00
2.002256770408648e-03	4.724589e+00	0.000000e+00
2.002430222056791e-03	4.724823e+00	0.000000e+00
2.002512505531498e-03	4.725688e+00	0.000000e+00
2.002562312106704e-03	4.727037e+00	0.000000e+00
2.002603671494712e-03	4.728664e+00	0.000000e+00
2.002647598913691e-03	4.730976e+00	0.000000e+00
2.002686723017624e-03	4.733945e+00	0.000000e+00
2.002728628221008e-03	4.737714e+00	0.000000e+00
2.002748121427486e-03	4.739185e+00	0.000000e+00
2.002769738617331e-03	4.740349e+00	0.000000e+00
2.002783856052474e-03	4.741002e+00	0.000000e+00
2.002801813121355e-03	4.741810e+00	0.000000e+00
2.002832235971119e-03	4.743178e+00	0.000000e+00
2.002893081670648e-03	4.745904e+00	0.000000e+00
2.002959296213273e-03	4.732667e+00	0.000000e+00
2.002978078948225e-03	4.707661e+00	0.000000e+00
2.002997696227272e-03	4.665072e+00	0.000000e+00
2.003013727646202e-03	4.632993e+00	0.000000e+00
2.003030429480883e-03	4.603025e+00	0.000000e+00
2.003059065823445e-03	4.555593e+00	0.000000e+00
2.003108411818454e-03	4.478248e+00	0.000000e+00
2.003155602822235e-03	4.407349e+00	0.000000e+00
2.003249984829798e-03	4.270624e+00	0.000000e+00
2.003391009580734e-03	4.071581e+00	0.000000e+00
2.003540527758113e-03	3.863038e+00	0.000000e+00
2.003703065168524e-03	3.636982e+00	0.000000e+00
2.003896363227961e-03	3.368260e+00	0.000000e+00
2.004230673743945e-03	2.903587e+00	0.000000e+00
2.004765960030077e-03	2.159691e+00	0.000000e+00
2.005087320008443e-03	1.713221e+00	0.000000e+00
2.005310904710369e-03	1.402707e+00	0.000000e+00
2.005406061621260e-03	1.270612e+00	0.000000e+00
2.005526401593175e-03	1.103629e+00	0.000000e+00
2.005593363365386e-03	1.010766e+00	0.000000e+00
2.005685528111696e-03	8.830470e-01	0.000000e+00
2.005761823178017e-03	7.772733e-01	0.000000e+00
2.005824262312107e-03	6.903461e-01	0.000000e+00
2.005855852409892e-03	6.461343e-01	0.000000e+00
2.005882680007936e-03	6.085001e-01	0.000000e+00
2.005897568429650e-03	5.877017e-01	0.000000e+00
2.005907037847984e-03	5.744716e-01	0.000000e+00
2.005920719879466e-03	5.554358e-01	0.000000e+00
2.005927828705429e-03	5.455496e-01	0.000000e+00
2.005934906015539e-03	5.357309e-01	0.000000e+00
2.005943413533053e-03	5.239258e-01	0.000000e+00
2.005953190065166e-03	5.103832e-01	0.000000e+00
2.005965615053475e-03	4.931798e-01	0.000000e+00
2.005982055521771e-03	4.704399e-01	0.000000e+00
2.006003869627264e-03	4.402795e-01	0.000000e+00
2.006027019612167e-03	4.082817e-01	0.000000e+00
2.006051239682501e-03	3.748086e-01	0.000000e+00
2.006073357213083e-03	3.442474e-01	0.000000e+00
2.006094994766565e-03	3.143649e-01	0.000000e+00
2.006119512629320e-03	2.805378e-01	0.000000e+00
2.006141703250623e-03	2.499719e-01	0.000000e+00
2.006169145800391e-03	2.122683e-01	0.000000e+00
2.006204769470387e-03	1.639579e-01	0.000000e+00
2.006226067437180e-03	1.369883e-01	0.000000e+00
2.006247305862414e-03	1.132082e-01	0.000000e+00
2.006273132716319e-03	8.951309e-02	0.000000e+00
2.006307785275560e-03	6.501990e-02	0.000000e+00
2.006335217941520e-03	5.096967e-02	0.000000e+00
2.006367134170846e-03	3.952399e-02	0.000000e+00
2.006403546106014e-03	3.027111e-02	0.000000e+00
2.006455071105177e-03	2.130372e-02	0.000000e+00
2.006506574691808e-03	1.580203e-02	0.000000e+00
2.006560037839730e-03	1.346860e-02	0.000000e+00
2.006609378331103e-03	1.384035e-02	0.000000e+00
2.006658300696306e-03	1.589942e-02	0.000000e+00
2.006707311406731e-03	1.827061e-02	0.000000e+00
2.006742829181951e-03	1.669686e-02	0.000000e+00
2.006769193591343e-03	8.991855e-03	0.000000e+00
2.006792674553383e-03	-2.808167e-03	0.000000e+00
2.006809751688254e-03	-1.092179e-02	0.000000e+00
2.006823177833280e-03	-1.523971e-02	0.000000e+00
2.006835207010072e-03	-1.758450e-02	0.000000e+00
2.006847192498570e-03	-1.878781e-02	0.000000e+00
2.006870902382826e-03	-1.933552e-02	0.000000e+00
2.006898070314283e-03	-1.840462e-02	0.000000e+00
2.006927133931068e-03	-1.637352e-02	0.000000e+00
2.006959168671451e-03	-1.383935e-02	0.000000e+00
2.006993518450724e-03	-1.138279e-02	0.000000e+00
2.007034532385580e-03	-9.058828e-03	0.000000e+00
2.007085823431678e-03	-6.961971e-03	0.000000e+00
2.007144988944355e-03	-5.372791e-03	0.000000e+00
2.007214877528266e-03	-4.303192e-03	0.000000e+00
2.007279465681431e-03	-3.957530e-03	0.000000e+00
2.007345751097329e-03	-4.119919e-03	0.000000e+00
2.007417946734138e-03	-3.826176e-03	0.000000e+00
2.007457069914662e-03	-1.934123e-03	0.000000e+00
2.007484658598302e-03	8.906937e-04	0.000000e+00
2.007511480222378e-03	3.778557e-03	0.000000e+00
2.007528550960547e-03	4.965752e-03	0.000000e+00
2.007549070185436e-03	5.631712e-03	0.000000e+00
2.007567595016696e-03	5.789401e-03	0.000000e+00
2.007599463464258e-03	5.536209e-03	0.000000e+00
2.007634126642374e-03	4.999700e-03	0.000000e+00
2.007671432632875e-03	4.391917e-03	0.000000e+00
2.007711167036267e-03	3.922455e-03	0.000000e+00
2.007760628945635e-03	3.605559e-03	0.000000e+00
2.007820309993536e-03	3.261898e-03	0.000000e+00
2.007863237510408e-03	2.611077e-03	0.000000e+00
2.007899939305913e-03	1.396080e-03	0.000000e+00
2.007947502026253e-03	-8.133556e-04	0.000000e+00
2.007984325249464e-03	-2.495226e-03	0.000000e+00
2.008014418570011e-03	-3.508974e-03	0.000000e+00
2.008047062336523e-03	-4.115356e-03	0.000000e+00
2.008082198031106e-03	-4.294439e-03	0.000000e+00
2.008138481145820e-03	-3.972627e-03	0.000000e+00
2.008192616995984e-03	-3.055796e-03	0.000000e+00
2.008251624754935e-03	-1.312933e-03	0.000000e+00
2.008311489943195e-03	7.311854e-04	0.000000e+00
2.008344764193752e-03	1.546390e-03	0.000000e+00
2.008371384749628e-03	1.811866e-03	0.000000e+00
2.008398492697406e-03	1.811865e-03	0.000000e+00
2.008430708876249e-03	1.603133e-03	0.000000e+00
2.008473497677034e-03	1.170044e-03	0.000000e+00
2.008513649745582e-03	7.322247e-04	0.000000e+00
2.008558084464180e-03	3.183001e-04	0.000000e+00
2.008602724222687e-03	3.628512e-05	0.000000e+00
2.008647781491174e-03	-1.062846e-04	0.000000e+00
2.008690796347646e-03	-1.394376e-04	0.000000e+00
2.008736203737056e-03	-1.165997e-04	0.000000e+00
2.008790796071773e-03	-6.853935e-05	0.000000e+00
2.008817614006587e-03	-5.052890e-05	0.000000e+00
2.008843996390549e-03	-3.835811e-05	0.000000e+00
2.008876095899908e-03	-2.987681e-05	0.000000e+00
2.008951488664353e-03	-2.533090e-05	0.000000e+00
2.009100907646982e-03	-2.487486e-05	0.000000e+00
2.009250326629612e-03	-2.416452e-05	0.000000e+00
2.009399745612241e-03	-2.319989e-05	0.000000e+00
2.009549164594871e-03	-2.198096e-05	0.000000e+00
2.009698583577500e-03	-2.050774e-05	0.000000e+00
2.009848002560129e-03	-1.878022e-05	0.000000e+00
2.009997421542759e-03	-1.679841e-05	0.000000e+00
2.010745899548093e-03	-1.213966e-05	0.000000e+00
2.011827064114723e-03	-7.798224e-06	0.000000e+00
2.013065639912030e-03	-5.172917e-06	0.000000e+00
2.015542791506644e-03	-2.689875e-06	0.000000e+00
2.017981968706561e-03	-1.618606e-06	0.000000e+00
2.022860323106396e-03	-9.105017e-07	0.000000e+00
2.029653716215908e-03	-4.558056e-07	0.000000e+00
2.036976208914244e-03	-2.253707e-07	0.000000e+00
2.044667959817496e-03	-1.050022e-07	0.000000e+00
2.065270423863457e-03	-1.437968e-08	0.000000e+00
3.999624640762154e-03	1.460049e-08	0.000000e+00
4.000000000000000e-03	1.855011e-06	0.000000e+00
4.000001651582510e-03	3.467240e-04	-8.257913e-06
4.000004954747529e-03	7.867924e-04	-2.477374e-05
4.000007344468891e-03	8.370420e-04	-3.672234e-05
4.000009757971481e-03	7.135329e-04	-4.878986e-05
4.000012616779845e-03	5.577145e-04	-6.308390e-05
4.000016368894990e-03	3.959581e-04	-8.184448e-05
4.000020560503722e-03	2.564962e-04	-1.028025e-04
4.000024620208379e-03	1.356107e-04	-1.231010e-04
4.000028844815715e-03	-1.171963e-05	-1.442241e-04
4.000034549094167e-03	-2.838586e-04	-1.727455e-04
4.000041766155710e-03	-7.712456e-04	-2.088308e-04
4.000050512317138e-03	-1.569065e-03	-2.525616e-04
4.000059637789911e-03	-2.557495e-03	-2.981889e-04
4.000069855289676e-03	-3.582485e-03	-3.492764e-04
4.000080334157611e-03	-4.202105e-03	-4.016708e-04
4.000090987426418e-03	-4.150115e-03	-4.549371e-04
4.000101648851762e-03	-3.225186e-03	-5.082443e-04
4.000113022860565e-03	-1.003870e-03	-5.651143e-04
4.000126500556853e-03	3.454029e-03	-6.325028e-04
4.000140704595938e-03	1.029201e-02	-7.035230e-04
4.000154109845367e-03	1.893818e-02	-7.705492e-04
4.000172484561389e-03	3.378399e-02	-8.624228e-04
4.000193498076134e-03	5.391479e-02	-9.674904e-04
4.000216539292101e-03	7.902023e-02	-1.082696e-03
4.000244175894504e-03	1.119825e-01	-1.220879e-03
4.000288207801682e-03	1.677115e-01	-1.441039e-03
4.000361014534075e-03	2.631165e-01	-1.805073e-03
4.000444772710446e-03	3.755653e-01	-2.223863e-03
4.000568804410936e-03	5.454425e-01	-2.844022e-03
4.000724110994575e-03	7.605210e-01	-3.620555e-03
4.001000000000000e-03	1.143646e+00	-5.000000e-03
4.001019910782611e-03	1.171254e+00	-5.000000e-03
4.001059732347831e-03	1.226521e+00	-5.000000e-03
4.001103979041418e-03	1.287938e+00	-5.000000e-03
4.001158250175805e-03	1.363266e+00	-5.000000e-03
4.001223507545248e-03	1.453845e+00	-5.000000e-03
4.001330077152090e-03	1.601763e+00	-5.000000e-03
4.001456010435773e-03	1.776565e+00	-5.000000e-03
4.001550754203815e-03	1.908147e+00	-5.000000e-03
4.001601756548570e-03	1.978960e+00	-5.000000e-03
4.001652733332641e-03	2.048678e+00	-5.000000e-03
4.001711985740651e-03	2.124880e+00	-5.000000e-03
4.001789362919572e-03	2.214413e+00	-5.000000e-03
4.001883923533779e-03	2.314405e+00	-5.000000e-03
4.002001268989900e-03	2.433551e+00	-5.000000e-03
4.002123222871236e-03	2.555082e+00	-5.000000e-03
4.002305776910034e-03	2.733715e+00	-5.000000e-03
4.002670884987630e-03	3.085472e+00	-5.000000e-03
4.003016736344187e-03	3.413203e+00	-5.000000e-03
4.003515331370266e-03	3.870196e+00	-5.000000e-03
4.003755284731337e-03	4.062778e+00	-5.000000e-03
4.003968301669173e-03	4.194309e+00	-5.000000e-03
4.004091475130060e-03	4.250381e+00	-5.000000e-03
4.004233731293868e-03	4.300989e+00	-5.000000e-03
4.004378797669801e-03	4.343747e+00	-5.000000e-03
4.004573990977627e-03	4.390797e+00	-5.000000e-03
4.004766776117762e-03	4.428844e+00	-5.000000e-03
4.004995139207584e-03	4.465179e+00	-5.000000e-03
4.005276969137068e-03	4.501218e+00	-5.000000e-03
4.005582781163976e-03	4.532401e+00	-5.000000e-03
4.005927525718755e-03	4.560107e+00	-5.000000e-03
4.006353739475276e-03	4.586985e+00	-5.000000e-03
4.006807507579344e-03	4.609148e+00	-5.000000e-03
4.007378789754543e-03	4.630419e+00	-5.000000e-03
4.008011926161921e-03	4.648358e+00	-5.000000e-03
4.008648568765161e-03	4.662100e+00	-5.000000e-03
4.009143989026466e-03	4.669775e+00	-5.000000e-03
4.009484638593969e-03	4.672559e+00	-5.000000e-03
4.009656309410151e-03	4.672772e+00	-5.000000e-03
4.009761014650347e-03	4.672622e+00	-5.000000e-03
4.009808920349137e-03	4.672604e+00	-5.000000e-03
4.010042934108906e-03	4.672635e+00	-5.000000e-03
4.010484809480790e-03	4.672628e+00	-5.000000e-03
4.011283005683267e-03	4.672629e+00	-5.000000e-03
5.235521523194362e-03	4.672632e+00	-5.000000e-03
6.000000000000000e-03	4.672633e+00	-5.000000e-03
6.001000000000000e-03	4.672632e+00	-5.000000e-03
6.001004400075127e-03	4.672613e+00	-4.978000e-03
6.001013200225378e-03	4.672583e+00	-4.933999e-03
6.001023163573914e-03	4.672565e+00	-4.884182e-03
6.001032667468858e-03	4.672580e+00	-4.836663e-03
6.001051675258745e-03	4.672728e+00	-4.741624e-03
6.001069074711703e-03	4.673071e+00	-4.654626e-03
6.001091718193114e-03	4.673933e+00	-4.541409e-03
6.001115084866441e-03	4.675416e+00	-4.424576e-03
6.001152722829008e-03	4.678806e+00	-4.236386e-03
6.001179998843222e-03	4.681876e+00	-4.100006e-03
6.001201619892058e-03	4.684695e+00	-3.991900e-03
6.001225321557069e-03	4.688035e+00	-3.873392e-03
6.001250189022042e-03	4.691679e+00	-3.749055e-03
6.001273961343511e-03	4.695184e+00	-3.630193e-03
6.001321505986448e-03	4.701974e+00	-3.392470e-03
6.001386447112548e-03	4.710640e+00	-3.067764e-03
6.001467489738418e-03	4.720346e+00	-2.662551e-03
6.001522205294260e-03	4.724722e+00	-2.388973e-03
6.001573440052644e-03	4.725887e+00	-2.132800e-03
6.001622826789233e-03	4.725744e+00	-1.885866e-03
6.001689098315198e-03	4.725545e+00	-1.554508e-03
6.001750206572402e-03	4.725360e+00	-1.248967e-03
6.001872423086808e-03	4.724988e+00	-6.378845e-04
6.002000000000000e-03	4.724600e+00	0.000000e+00
6.002012757691320e-03	4.724599e+00	0.000000e+00
6.002038273073958e-03	4.724598e+00	0.000000e+00
6.002089303839235e-03	4.724596e+00	0.000000e+00
6.002169382936260e-03	4.724592e+00	0.000000e+00
6.002255849882098e-03	4.724589e+00	0.000000e+00
6.002428783773775e-03	4.724811e+00	0.000000e+00
6.002511947318023e-03	4.725665e+00	0.000000e+00
6.002561527047644e-03	4.726996e+00	0.000000e+00
6.002602292740584e-03	4.728590e+00	0.000000e+00
6.002645917076104e-03	4.730893e+00	0.000000e+00
6.002689785290932e-03	4.734225e+00	0.000000e+00
6.002730091015822e-03	4.737823e+00	0.000000e+00
6.002749513779874e-03	4.739269e+00	0.000000e+00
6.002770726748422e-03	4.740396e+00	0.000000e+00
6.002784179217034e-03	4.741016e+00	0.000000e+00
6.002802444699984e-03	4.741838e+00	0.000000e+00
6.002836579990924e-03	4.743373e+00	0.000000e+00
6.002893831695062e-03	4.742784e+00	0.000000e+00
6.002972967849463e-03	4.711825e+00	0.000000e+00
6.002996683459853e-03	4.674203e+00	0.000000e+00
6.003014375891479e-03	4.634503e+00	0.000000e+00
6.003031788761241e-03	4.601553e+00	0.000000e+00
6.003055063540087e-03	4.562190e+00	0.000000e+00
6.003077434685348e-03	4.526522e+00	0.000000e+00
6.003122176975873e-03	4.457795e+00	0.000000e+00
6.003167839627870e-03	4.389708e+00	0.000000e+00
6.003237728367888e-03	4.288437e+00	0.000000e+00
6.003346386982763e-03	4.134680e+00	0.000000e+00
6.003499851914388e-03	3.920335e+00	0.000000e+00
6.003655093347833e-03	3.704318e+00	0.000000e+00
6.003844326199038e-03	3.441226e+00	0.000000e+00
6.004112255792341e-03	3.068804e+00	0.000000e+00
